
T152C 000:277 SEGGER J-Link V4.92 Log File (0000ms, 0264ms total)
T152C 000:277 DLL Compiled: Sep 30 2014 09:33:42 (0000ms, 0264ms total)
T152C 000:277 Logging started @ 2014-12-02 20:07 (0001ms, 0265ms total)
T152C 000:278 JLINK_SetWarnOutHandler(...) (0000ms, 0265ms total)
T152C 000:278 JLINK_OpenEx(...)
Firmware: J-Link ARM-OB STM32 compiled Aug 22 2012 19:52:04
Hardware: V7.00
S/N: 20090928
Feature(s): RDI,FlashDL,FlashBP,JFlash,GDBFull  returns O.K. (0260ms, 0525ms total)
T152C 000:538 JLINK_SetErrorOutHandler(...) (0000ms, 0525ms total)
T152C 000:538 JLINK_ExecCommand("ProjectFile = "E:\WORK\Project_List\MULTI_ROTOR_TYPE_AIRCRAFT\GFLY\FLY\JLinkSettings.ini"", ...)  returns 0x00 (0000ms, 0525ms total)
T152C 000:538 JLINK_ExecCommand("Device = STM32F103VC", ...)Device "STM32F103VC" selected (256 KB flash, 48 KB RAM).  returns 0x00 (0002ms, 0527ms total)
T152C 000:540 JLINK_ExecCommand("DisableConnectionTimeout", ...)  returns 0x01 (0000ms, 0527ms total)
T152C 000:540 JLINK_GetHardwareVersion()  returns 0x11170 (0000ms, 0527ms total)
T152C 000:540 JLINK_GetDLLVersion()  returns 49200 (0000ms, 0527ms total)
T152C 000:540 JLINK_GetFirmwareString(...) (0000ms, 0527ms total)
T152C 000:541 JLINK_GetDLLVersion()  returns 49200 (0000ms, 0527ms total)
T152C 000:541 JLINK_GetCompileDateTime() (0000ms, 0527ms total)
T152C 000:542 JLINK_GetFirmwareString(...) (0000ms, 0527ms total)
T152C 000:543 JLINK_GetHardwareVersion()  returns 0x11170 (0000ms, 0527ms total)
T152C 000:545 JLINK_TIF_Select(JLINKARM_TIF_SWD)  returns 0x00 (0001ms, 0528ms total)
T152C 000:546 JLINK_SetSpeed(5000) (0000ms, 0528ms total)
T152C 000:546 JLINK_GetId() >0x108 TIF>Found SWD-DP with ID 0x1BA01477 >0x0D TIF> >0x28 TIF> >0x0D TIF> >0x28 TIF> >0x0D TIF> >0x21 TIF> >0x0D TIF> >0x28 TIF> >0x0D TIF> >0x28 TIF> >0x0D TIF> >0x28 TIF> >0x0D TIF> >0x21 TIF> >0x0D TIF> >0x21 TIF> >0x0D TIF> >0x28 TIF> >0x0D TIF> >0x21 TIF> >0x0D TIF> >0x21 TIF> >0x108 TIF>Found SWD-DP with ID 0x1BA01477 >0x0D TIF> >0x21 TIF> >0x0D TIF> >0x28 TIF> >0x0D TIF> >0x28 TIF> >0x0D TIF> >0x21 TIF> >0x0D TIF> >0x28 TIF> >0x0D TIF> >0x21 TIF> >0x0D TIF> >0x21 TIF>
 >0x0D TIF> >0x21 TIF> >0x0D TIF> >0x21 TIF> >0x0D TIF> >0x28 TIF> >0x0D TIF> >0x28 TIF> >0x0D TIF> >0x21 TIF> >0x0D TIF> >0x28 TIF> >0x0D TIF> >0x28 TIF> >0x0D TIF> >0x28 TIF> >0x0D TIF> >0x21 TIF> >0x0D TIF> >0x21 TIF> >0x0D TIF> >0x28 TIF> >0x0D TIF> >0x21 TIF> >0x0D TIF> >0x21 TIF>Found Cortex-M3 r1p1, Little endian. -- CPU_WriteMem(4 bytes @ 0xE0002000) -- CPU_ReadMem(4 bytes @ 0xE000EDF0) -- CPU_ReadMem(4 bytes @ 0xE0002000)FPUnit: 6 code (BP) slots and 2 literal slots
 -- CPU_ReadMem(4 bytes @ 0xE000EDFC) -- CPU_ReadMem(4 bytes @ 0xE0001000) -- CPU_WriteMem(4 bytes @ 0xE0001000) -- CPU_ReadMem(4 bytes @ 0xE000ED88) -- CPU_WriteMem(4 bytes @ 0xE000ED88) -- CPU_ReadMem(4 bytes @ 0xE000ED88) -- CPU_WriteMem(4 bytes @ 0xE000ED88) -- CPU_ReadMem(4 bytes @ 0xE00FF010)TPIU fitted. -- CPU_ReadMem(4 bytes @ 0xE00FF014)ETM fitted. -- CPU_ReadMem(4 bytes @ 0xE00FF018) >0x0D TIF> >0x21 TIF>  returns 0x1BA01477 (0042ms, 0570ms total)
T152C 000:588 JLINK_GetDeviceFamily()  returns 3 (0000ms, 0570ms total)
T152C 000:588 JLINK_ReadMem (0xE00FFFF0, 0x0010 Bytes, ...) -- CPU is running -- CPU_ReadMem(16 bytes @ 0xE00FFFF0) - Data: 0D 00 00 00 10 00 00 00 05 00 00 00 B1 00 00 00  returns 0x00 (0001ms, 0571ms total)
T152C 000:589 JLINK_ReadMem (0xE00FFFD0, 0x0020 Bytes, ...) -- CPU is running -- CPU_ReadMem(32 bytes @ 0xE00FFFD0) - Data: 00 00 00 00 00 00 00 00 00 00 00 00 00 00 00 00 ...  returns 0x00 (0000ms, 0571ms total)
T152C 000:589 JLINK_ReadMem (0xE00FF000, 0x0018 Bytes, ...) -- CPU is running -- CPU_ReadMem(24 bytes @ 0xE00FF000) - Data: 03 F0 F0 FF 03 20 F0 FF 03 30 F0 FF 03 10 F0 FF ...  returns 0x00 (0001ms, 0572ms total)
T152C 000:590 JLINK_ReadMemU32(0xE000ED00, 0x0001 Items, ...) -- CPU is running -- CPU_ReadMem(4 bytes @ 0xE000ED00) - Data: 31 C2 1F 41  returns 0x01 (0001ms, 0573ms total)
T152C 000:591 JLINK_SetResetType(JLINKARM_RESET_TYPE_NORMAL)  returns JLINKARM_RESET_TYPE_NORMAL (0000ms, 0573ms total)
T152C 000:591 JLINK_Reset() -- CPU is running -- CPU_WriteMem(4 bytes @ 0xE000EDF0) -- CPU is running -- CPU_WriteMem(4 bytes @ 0xE000EDFC) >0x35 TIF> -- CPU is running -- CPU_WriteMem(4 bytes @ 0xE000ED0C) -- CPU is running -- CPU_ReadMem(4 bytes @ 0xE000EDF0) -- CPU is running -- CPU_ReadMem(4 bytes @ 0xE000EDF0) -- CPU is running -- CPU_WriteMem(4 bytes @ 0xE000EDF0) -- CPU is running -- CPU_WriteMem(4 bytes @ 0xE000EDFC) -- CPU is running -- CPU_ReadMem(4 bytes @ 0xE000EDF0)
 -- CPU_WriteMem(4 bytes @ 0xE0002000) -- CPU_ReadMem(4 bytes @ 0xE000EDFC) -- CPU_ReadMem(4 bytes @ 0xE0001000) (0022ms, 0595ms total)
T152C 000:613 JLINK_ReadReg(R15 (PC))  returns 0x080002B8 (0000ms, 0595ms total)
T152C 000:613 JLINK_ReadReg(XPSR)  returns 0x01000000 (0000ms, 0595ms total)
T152C 000:613 JLINK_Halt()  returns 0x00 (0000ms, 0595ms total)
T152C 000:613 JLINK_IsHalted()  returns TRUE (0000ms, 0595ms total)
T152C 000:613 JLINK_ReadMemU32(0xE000EDF0, 0x0001 Items, ...) -- CPU_ReadMem(4 bytes @ 0xE000EDF0) - Data: 03 00 03 00  returns 0x01 (0001ms, 0596ms total)
T152C 000:614 JLINK_WriteU32(0xE000EDF0, 0xA05F0003) -- CPU_WriteMem(4 bytes @ 0xE000EDF0)  returns 0x00 (0000ms, 0596ms total)
T152C 000:614 JLINK_WriteU32(0xE000EDFC, 0x01000000) -- CPU_WriteMem(4 bytes @ 0xE000EDFC)  returns 0x00 (0001ms, 0597ms total)
T152C 000:616 JLINK_GetHWStatus(...)  returns 0x00 (0000ms, 0597ms total)
T152C 000:617 JLINK_GetNumBPUnits(Type = 0xFFFFFF00)  returns 0x06 (0000ms, 0597ms total)
T152C 000:617 JLINK_GetNumBPUnits(Type = 0xF0)  returns 0x2000 (0000ms, 0597ms total)
T152C 000:617 JLINK_GetNumWPUnits()  returns 0x04 (0000ms, 0597ms total)
T152C 000:617 JLINK_GetSpeed()  returns 0xFA0 (0000ms, 0597ms total)
T152C 000:617 JLINK_ReadMemU32(0xE000E004, 0x0001 Items, ...) -- CPU_ReadMem(4 bytes @ 0xE000E004) - Data: 01 00 00 00  returns 0x01 (0001ms, 0598ms total)
T152C 000:618 JLINK_ReadMemU32(0xE000E004, 0x0001 Items, ...) -- CPU_ReadMem(4 bytes @ 0xE000E004) - Data: 01 00 00 00  returns 0x01 (0001ms, 0599ms total)
T152C 000:619 JLINK_WriteMem(0xE0001000, 0x001C Bytes, ...) - Data: 01 00 00 00 00 00 00 00 00 00 00 00 00 00 00 00 ... -- CPU_WriteMem(28 bytes @ 0xE0001000)  returns 0x1C (0001ms, 0600ms total)
T152C 000:620 JLINK_ReadMem (0xE0001000, 0x001C Bytes, ...) -- CPU_ReadMem(28 bytes @ 0xE0001000) - Data: 01 00 00 40 00 00 00 00 00 00 00 00 00 00 00 00 ...  returns 0x00 (0001ms, 0601ms total)
T152C 000:621 JLINK_ReadReg(R15 (PC))  returns 0x080002B8 (0000ms, 0601ms total)
T152C 000:621 JLINK_ReadReg(XPSR)  returns 0x01000000 (0000ms, 0601ms total)
T152C 000:838 JLINK_SetResetType(JLINKARM_RESET_TYPE_NORMAL)  returns JLINKARM_RESET_TYPE_NORMAL (0000ms, 0601ms total)
T152C 000:838 JLINK_Reset() -- CPU_WriteMem(4 bytes @ 0xE000EDF0) -- CPU_WriteMem(4 bytes @ 0xE000EDFC) >0x35 TIF> -- CPU_WriteMem(4 bytes @ 0xE000ED0C) -- CPU_ReadMem(4 bytes @ 0xE000EDF0) -- CPU_ReadMem(4 bytes @ 0xE000EDF0) -- CPU_WriteMem(4 bytes @ 0xE000EDF0) -- CPU_WriteMem(4 bytes @ 0xE000EDFC) -- CPU is running -- CPU_ReadMem(4 bytes @ 0xE000EDF0) -- CPU_WriteMem(4 bytes @ 0xE0002000) -- CPU_ReadMem(4 bytes @ 0xE000EDFC) -- CPU_ReadMem(4 bytes @ 0xE0001000) (0022ms, 0623ms total)
T152C 000:860 JLINK_ReadReg(R15 (PC))  returns 0x080002B8 (0000ms, 0623ms total)
T152C 000:860 JLINK_ReadReg(XPSR)  returns 0x01000000 (0000ms, 0623ms total)
T152C 000:860 JLINK_ReadMem (0x080002B8, 0x003C Bytes, ...) -- CPU_ReadMem(128 bytes @ 0x08000280) -- Updating C cache (128 bytes @ 0x08000280) -- Read from C cache (60 bytes @ 0x080002B8) - Data: 09 48 80 47 09 48 00 47 FE E7 FE E7 FE E7 FE E7 ...  returns 0x00 (0002ms, 0625ms total)
T152C 002:237 JLINK_ReadMem (0x200000B0, 0x0004 Bytes, ...) -- CPU_ReadMem(64 bytes @ 0x20000080) -- Updating C cache (64 bytes @ 0x20000080) -- Read from C cache (4 bytes @ 0x200000B0) - Data: 00 00 00 00  returns 0x00 (0002ms, 0627ms total)
T29BC 002:284 JLINK_SetBPEx(Addr = 0x08007BD4, Type = 0xFFFFFFF2)  returns 0x00000001 (0000ms, 0627ms total)
T29BC 002:284 JLINK_Go() -- CPU_WriteMem(4 bytes @ 0xE0002000) -- CPU_WriteMem(4 bytes @ 0xE0002008) -- CPU_WriteMem(4 bytes @ 0xE000200C) -- CPU_WriteMem(4 bytes @ 0xE0002010) -- CPU_WriteMem(4 bytes @ 0xE0002014) -- CPU_WriteMem(4 bytes @ 0xE0002018) -- CPU_WriteMem(4 bytes @ 0xE000201C) -- CPU_WriteMem(4 bytes @ 0xE0001004) (0008ms, 0635ms total)
T29BC 002:393 JLINK_IsHalted()  returns TRUE (0003ms, 0638ms total)
T29BC 002:396 JLINK_Halt()  returns 0x00 (0000ms, 0635ms total)
T29BC 002:396 JLINK_IsHalted()  returns TRUE (0000ms, 0635ms total)
T29BC 002:396 JLINK_IsHalted()  returns TRUE (0000ms, 0635ms total)
T29BC 002:396 JLINK_IsHalted()  returns TRUE (0001ms, 0636ms total)
T29BC 002:397 JLINK_ReadReg(R15 (PC))  returns 0x08007BD4 (0000ms, 0635ms total)
T29BC 002:397 JLINK_ReadReg(XPSR)  returns 0x61000000 (0000ms, 0635ms total)
T29BC 002:397 JLINK_ClrBPEx(BPHandle = 0x00000001)  returns 0x00 (0000ms, 0635ms total)
T29BC 002:397 JLINK_ReadMemU32(0xE000ED30, 0x0001 Items, ...) -- CPU_ReadMem(4 bytes @ 0xE000ED30) - Data: 03 00 00 00  returns 0x01 (0000ms, 0635ms total)
T29BC 002:397 JLINK_ReadMemU32(0xE0001028, 0x0001 Items, ...) -- CPU_ReadMem(4 bytes @ 0xE0001028) - Data: 00 00 00 00  returns 0x01 (0001ms, 0636ms total)
T29BC 002:398 JLINK_ReadMemU32(0xE0001038, 0x0001 Items, ...) -- CPU_ReadMem(4 bytes @ 0xE0001038) - Data: 00 02 00 00  returns 0x01 (0001ms, 0637ms total)
T29BC 002:399 JLINK_ReadMemU32(0xE0001048, 0x0001 Items, ...) -- CPU_ReadMem(4 bytes @ 0xE0001048) - Data: 00 00 00 00  returns 0x01 (0001ms, 0638ms total)
T29BC 002:400 JLINK_ReadMemU32(0xE0001058, 0x0001 Items, ...) -- CPU_ReadMem(4 bytes @ 0xE0001058) - Data: 00 00 00 00  returns 0x01 (0000ms, 0638ms total)
T29BC 002:400 JLINK_ReadReg(R0)  returns 0x20000998 (0000ms, 0638ms total)
T29BC 002:400 JLINK_ReadReg(R1)  returns 0x20000B98 (0000ms, 0638ms total)
T29BC 002:400 JLINK_ReadReg(R2)  returns 0x20000B98 (0001ms, 0639ms total)
T29BC 002:401 JLINK_ReadReg(R3)  returns 0x20000B98 (0000ms, 0639ms total)
T29BC 002:401 JLINK_ReadReg(R4)  returns 0x00000000 (0000ms, 0639ms total)
T29BC 002:401 JLINK_ReadReg(R5)  returns 0x20000934 (0000ms, 0639ms total)
T29BC 002:401 JLINK_ReadReg(R6)  returns 0x00000000 (0000ms, 0639ms total)
T29BC 002:401 JLINK_ReadReg(R7)  returns 0x00000000 (0000ms, 0639ms total)
T29BC 002:401 JLINK_ReadReg(R8)  returns 0x00000000 (0000ms, 0639ms total)
T29BC 002:401 JLINK_ReadReg(R9)  returns 0x20000160 (0000ms, 0639ms total)
T29BC 002:401 JLINK_ReadReg(R10)  returns 0x0800A1D4 (0000ms, 0639ms total)
T29BC 002:401 JLINK_ReadReg(R11)  returns 0x00000000 (0000ms, 0639ms total)
T29BC 002:401 JLINK_ReadReg(R12)  returns 0x20000974 (0000ms, 0639ms total)
T29BC 002:401 JLINK_ReadReg(R13 (SP))  returns 0x20000F98 (0000ms, 0639ms total)
T29BC 002:401 JLINK_ReadReg(R14)  returns 0x080002A7 (0000ms, 0639ms total)
T29BC 002:401 JLINK_ReadReg(R15 (PC))  returns 0x08007BD4 (0000ms, 0639ms total)
T29BC 002:401 JLINK_ReadReg(XPSR)  returns 0x61000000 (0000ms, 0639ms total)
T29BC 002:401 JLINK_ReadReg(MSP)  returns 0x20000F98 (0000ms, 0639ms total)
T29BC 002:401 JLINK_ReadReg(PSP)  returns 0x20000800 (0000ms, 0639ms total)
T29BC 002:401 JLINK_ReadReg(CFBP)  returns 0x00000000 (0000ms, 0639ms total)
T152C 002:401 JLINK_ReadMem (0x200000B0, 0x0004 Bytes, ...) -- CPU_ReadMem(64 bytes @ 0x20000080) -- Updating C cache (64 bytes @ 0x20000080) -- Read from C cache (4 bytes @ 0x200000B0) - Data: 00 00 00 00  returns 0x00 (0001ms, 0640ms total)
T152C 002:404 JLINK_ReadMem (0x08007BD4, 0x002C Bytes, ...) -- CPU_ReadMem(64 bytes @ 0x08007BC0) -- Updating C cache (64 bytes @ 0x08007BC0) -- Read from C cache (44 bytes @ 0x08007BD4) - Data: FF F7 C4 FB 30 E0 19 48 00 68 20 B9 00 F0 46 FD ...  returns 0x00 (0001ms, 0641ms total)
T152C 002:405 JLINK_ReadMem (0x08007C00, 0x0010 Bytes, ...) -- CPU_ReadMem(64 bytes @ 0x08007C00) -- Updating C cache (64 bytes @ 0x08007C00) -- Read from C cache (16 bytes @ 0x08007C00) - Data: 00 F0 BC FE 0E 49 C8 60 18 E0 0D 48 00 69 20 B9  returns 0x00 (0001ms, 0642ms total)
T29BC 003:009 JLINK_Go() -- CPU_WriteMem(4 bytes @ 0xE0002008) (0003ms, 0645ms total)
T29BC 003:113 JLINK_IsHalted()  returns FALSE (0000ms, 0645ms total)
T29BC 003:214 JLINK_IsHalted()  returns FALSE (0000ms, 0645ms total)
T29BC 003:315 JLINK_IsHalted()  returns FALSE (0001ms, 0646ms total)
T29BC 003:417 JLINK_IsHalted()  returns FALSE (0000ms, 0645ms total)
T29BC 003:518 JLINK_IsHalted()  returns FALSE (0001ms, 0646ms total)
T29BC 003:620 JLINK_IsHalted()  returns FALSE (0000ms, 0645ms total)
T29BC 003:721 JLINK_IsHalted()  returns FALSE (0001ms, 0646ms total)
T29BC 003:823 JLINK_IsHalted()  returns FALSE (0000ms, 0645ms total)
T29BC 003:924 JLINK_IsHalted()  returns FALSE (0001ms, 0646ms total)
T29BC 004:025 JLINK_IsHalted()  returns FALSE (0000ms, 0645ms total)
T29BC 004:126 JLINK_IsHalted()  returns FALSE (0000ms, 0645ms total)
T29BC 004:227 JLINK_IsHalted()  returns FALSE (0000ms, 0645ms total)
T29BC 004:328 JLINK_IsHalted()  returns FALSE (0001ms, 0646ms total)
T29BC 004:430 JLINK_IsHalted()  returns FALSE (0000ms, 0645ms total)
T29BC 004:531 JLINK_IsHalted()  returns FALSE (0000ms, 0645ms total)
T29BC 004:632 JLINK_IsHalted()  returns FALSE (0000ms, 0645ms total)
T29BC 004:733 JLINK_IsHalted()  returns FALSE (0000ms, 0645ms total)
T29BC 004:834 JLINK_IsHalted()  returns FALSE (0000ms, 0645ms total)
T29BC 004:935 JLINK_IsHalted()  returns FALSE (0000ms, 0645ms total)
T29BC 005:036 JLINK_IsHalted()  returns FALSE (0000ms, 0645ms total)
T29BC 005:137 JLINK_IsHalted()  returns FALSE (0000ms, 0645ms total)
T29BC 005:238 JLINK_IsHalted()  returns FALSE (0000ms, 0645ms total)
T29BC 005:340 JLINK_IsHalted()  returns FALSE (0001ms, 0646ms total)
T29BC 005:442 JLINK_IsHalted()  returns FALSE (0000ms, 0645ms total)
T29BC 005:543 JLINK_IsHalted()  returns FALSE (0000ms, 0645ms total)
T29BC 005:644 JLINK_IsHalted()  returns FALSE (0000ms, 0645ms total)
T29BC 005:745 JLINK_IsHalted()  returns FALSE (0000ms, 0645ms total)
T29BC 005:846 JLINK_IsHalted()  returns FALSE (0000ms, 0645ms total)
T29BC 005:947 JLINK_IsHalted()  returns FALSE (0000ms, 0645ms total)
T29BC 006:048 JLINK_IsHalted()  returns FALSE (0000ms, 0645ms total)
T29BC 006:149 JLINK_IsHalted()  returns FALSE (0000ms, 0645ms total)
T29BC 006:250 JLINK_Halt()  returns 0x00 (0003ms, 0648ms total)
T29BC 006:253 JLINK_IsHalted()  returns TRUE (0000ms, 0648ms total)
T29BC 006:253 JLINK_IsHalted()  returns TRUE (0000ms, 0648ms total)
T29BC 006:253 JLINK_IsHalted()  returns TRUE (0000ms, 0648ms total)
T29BC 006:253 JLINK_ReadReg(R15 (PC))  returns 0x08005948 (0000ms, 0648ms total)
T29BC 006:253 JLINK_ReadReg(XPSR)  returns 0x21000000 (0000ms, 0648ms total)
T29BC 006:253 JLINK_ReadMemU32(0xE000ED30, 0x0001 Items, ...) -- CPU_ReadMem(4 bytes @ 0xE000ED30) - Data: 01 00 00 00  returns 0x01 (0001ms, 0649ms total)
T29BC 006:254 JLINK_ReadMemU32(0xE0001028, 0x0001 Items, ...) -- CPU_ReadMem(4 bytes @ 0xE0001028) - Data: 00 00 00 00  returns 0x01 (0001ms, 0650ms total)
T29BC 006:255 JLINK_ReadMemU32(0xE0001038, 0x0001 Items, ...) -- CPU_ReadMem(4 bytes @ 0xE0001038) - Data: 00 02 00 00  returns 0x01 (0000ms, 0650ms total)
T29BC 006:255 JLINK_ReadMemU32(0xE0001048, 0x0001 Items, ...) -- CPU_ReadMem(4 bytes @ 0xE0001048) - Data: 00 00 00 00  returns 0x01 (0001ms, 0651ms total)
T29BC 006:256 JLINK_ReadMemU32(0xE0001058, 0x0001 Items, ...) -- CPU_ReadMem(4 bytes @ 0xE0001058) - Data: 00 00 00 00  returns 0x01 (0001ms, 0652ms total)
T29BC 006:257 JLINK_ReadReg(R0)  returns 0x00000004 (0000ms, 0652ms total)
T29BC 006:257 JLINK_ReadReg(R1)  returns 0x40010C14 (0000ms, 0652ms total)
T29BC 006:257 JLINK_ReadReg(R2)  returns 0x0000000E (0000ms, 0652ms total)
T29BC 006:257 JLINK_ReadReg(R3)  returns 0x00000000 (0000ms, 0652ms total)
T29BC 006:257 JLINK_ReadReg(R4)  returns 0x00000020 (0000ms, 0652ms total)
T29BC 006:257 JLINK_ReadReg(R5)  returns 0x00000003 (0000ms, 0652ms total)
T29BC 006:257 JLINK_ReadReg(R6)  returns 0x000000D0 (0000ms, 0652ms total)
T29BC 006:257 JLINK_ReadReg(R7)  returns 0x0000003B (0000ms, 0652ms total)
T29BC 006:257 JLINK_ReadReg(R8)  returns 0x00000000 (0000ms, 0652ms total)
T29BC 006:257 JLINK_ReadReg(R9)  returns 0x20000160 (0000ms, 0652ms total)
T29BC 006:257 JLINK_ReadReg(R10)  returns 0x0800A1D4 (0001ms, 0653ms total)
T29BC 006:258 JLINK_ReadReg(R11)  returns 0x00000000 (0000ms, 0653ms total)
T29BC 006:258 JLINK_ReadReg(R12)  returns 0x00FF0000 (0000ms, 0653ms total)
T29BC 006:258 JLINK_ReadReg(R13 (SP))  returns 0x20000F58 (0000ms, 0653ms total)
T29BC 006:258 JLINK_ReadReg(R14)  returns 0x08005AF7 (0000ms, 0653ms total)
T29BC 006:258 JLINK_ReadReg(R15 (PC))  returns 0x08005948 (0000ms, 0653ms total)
T29BC 006:258 JLINK_ReadReg(XPSR)  returns 0x21000000 (0000ms, 0653ms total)
T29BC 006:258 JLINK_ReadReg(MSP)  returns 0x20000F58 (0000ms, 0653ms total)
T29BC 006:258 JLINK_ReadReg(PSP)  returns 0x20000800 (0000ms, 0653ms total)
T29BC 006:258 JLINK_ReadReg(CFBP)  returns 0x00000000 (0000ms, 0653ms total)
T152C 006:258 JLINK_ReadMem (0x200000B0, 0x0004 Bytes, ...) -- CPU_ReadMem(64 bytes @ 0x20000080) -- Updating C cache (64 bytes @ 0x20000080) -- Read from C cache (4 bytes @ 0x200000B0) - Data: 57 FF FF FF  returns 0x00 (0002ms, 0655ms total)
T152C 006:263 JLINK_ReadMem (0x08005948, 0x003C Bytes, ...) -- CPU_ReadMem(128 bytes @ 0x08005940) -- Updating C cache (128 bytes @ 0x08005940) -- Read from C cache (60 bytes @ 0x08005948) - Data: 9D F8 00 00 40 1E 40 B2 00 90 9D F8 00 00 00 28 ...  returns 0x00 (0002ms, 0657ms total)
T29BC 014:260 JLINK_SetBPEx(Addr = 0x08007346, Type = 0xFFFFFFF2)  returns 0x00000002 (0000ms, 0657ms total)
T29BC 014:260 JLINK_Go() -- CPU_WriteMem(4 bytes @ 0xE0002000) -- CPU_WriteMem(4 bytes @ 0xE0002008) (0003ms, 0660ms total)
T29BC 014:364 JLINK_IsHalted()  returns TRUE (0003ms, 0663ms total)
T29BC 014:367 JLINK_Halt()  returns 0x00 (0000ms, 0660ms total)
T29BC 014:367 JLINK_IsHalted()  returns TRUE (0000ms, 0660ms total)
T29BC 014:367 JLINK_IsHalted()  returns TRUE (0000ms, 0660ms total)
T29BC 014:367 JLINK_IsHalted()  returns TRUE (0000ms, 0660ms total)
T29BC 014:367 JLINK_ReadReg(R15 (PC))  returns 0x08007346 (0000ms, 0660ms total)
T29BC 014:367 JLINK_ReadReg(XPSR)  returns 0x01000000 (0000ms, 0660ms total)
T29BC 014:367 JLINK_ClrBPEx(BPHandle = 0x00000002)  returns 0x00 (0000ms, 0660ms total)
T29BC 014:367 JLINK_ReadMemU32(0xE000ED30, 0x0001 Items, ...) -- CPU_ReadMem(4 bytes @ 0xE000ED30) - Data: 03 00 00 00  returns 0x01 (0001ms, 0661ms total)
T29BC 014:368 JLINK_ReadMemU32(0xE0001028, 0x0001 Items, ...) -- CPU_ReadMem(4 bytes @ 0xE0001028) - Data: 00 00 00 00  returns 0x01 (0001ms, 0662ms total)
T29BC 014:369 JLINK_ReadMemU32(0xE0001038, 0x0001 Items, ...) -- CPU_ReadMem(4 bytes @ 0xE0001038) - Data: 00 02 00 00  returns 0x01 (0001ms, 0663ms total)
T29BC 014:370 JLINK_ReadMemU32(0xE0001048, 0x0001 Items, ...) -- CPU_ReadMem(4 bytes @ 0xE0001048) - Data: 00 00 00 00  returns 0x01 (0001ms, 0664ms total)
T29BC 014:371 JLINK_ReadMemU32(0xE0001058, 0x0001 Items, ...) -- CPU_ReadMem(4 bytes @ 0xE0001058) - Data: 00 00 00 00  returns 0x01 (0001ms, 0665ms total)
T29BC 014:372 JLINK_ReadReg(R0)  returns 0x00000147 (0000ms, 0665ms total)
T29BC 014:372 JLINK_ReadReg(R1)  returns 0x200000B8 (0000ms, 0665ms total)
T29BC 014:372 JLINK_ReadReg(R2)  returns 0x00000000 (0000ms, 0665ms total)
T29BC 014:372 JLINK_ReadReg(R3)  returns 0x00000000 (0000ms, 0665ms total)
T29BC 014:372 JLINK_ReadReg(R4)  returns 0x43A3D27A (0000ms, 0665ms total)
T29BC 014:372 JLINK_ReadReg(R5)  returns 0x20000934 (0000ms, 0665ms total)
T29BC 014:372 JLINK_ReadReg(R6)  returns 0x00000000 (0000ms, 0665ms total)
T29BC 014:372 JLINK_ReadReg(R7)  returns 0x00000000 (0000ms, 0665ms total)
T29BC 014:372 JLINK_ReadReg(R8)  returns 0x00000000 (0000ms, 0665ms total)
T29BC 014:372 JLINK_ReadReg(R9)  returns 0x20000160 (0000ms, 0665ms total)
T29BC 014:372 JLINK_ReadReg(R10)  returns 0x0800A1D4 (0000ms, 0665ms total)
T29BC 014:372 JLINK_ReadReg(R11)  returns 0x00000000 (0000ms, 0665ms total)
T29BC 014:372 JLINK_ReadReg(R12)  returns 0x00A3D27A (0000ms, 0665ms total)
T29BC 014:372 JLINK_ReadReg(R13 (SP))  returns 0x20000F7C (0000ms, 0665ms total)
T29BC 014:372 JLINK_ReadReg(R14)  returns 0x080072BF (0000ms, 0665ms total)
T29BC 014:372 JLINK_ReadReg(R15 (PC))  returns 0x08007346 (0000ms, 0665ms total)
T29BC 014:372 JLINK_ReadReg(XPSR)  returns 0x01000000 (0000ms, 0665ms total)
T29BC 014:372 JLINK_ReadReg(MSP)  returns 0x20000F7C (0000ms, 0665ms total)
T29BC 014:372 JLINK_ReadReg(PSP)  returns 0x20000800 (0000ms, 0665ms total)
T29BC 014:372 JLINK_ReadReg(CFBP)  returns 0x00000000 (0000ms, 0665ms total)
T152C 014:374 JLINK_ReadMem (0x200000B0, 0x0004 Bytes, ...) -- CPU_ReadMem(64 bytes @ 0x20000080) -- Updating C cache (64 bytes @ 0x20000080) -- Read from C cache (4 bytes @ 0x200000B0) - Data: 47 01 00 00  returns 0x00 (0001ms, 0666ms total)
T152C 014:388 JLINK_ReadMem (0x08007346, 0x0002 Bytes, ...) -- CPU_ReadMem(64 bytes @ 0x08007340) -- Updating C cache (64 bytes @ 0x08007340) -- Read from C cache (2 bytes @ 0x08007346) - Data: BD F8  returns 0x00 (0001ms, 0667ms total)
T152C 014:389 JLINK_ReadMem (0x08007348, 0x003C Bytes, ...) -- CPU_ReadMem(64 bytes @ 0x08007380) -- Updating C cache (64 bytes @ 0x08007380) -- Read from C cache (60 bytes @ 0x08007348) - Data: 0A 00 40 1C 80 B2 AD F8 0A 00 BD F8 08 10 03 98 ...  returns 0x00 (0002ms, 0669ms total)
T152C 014:446 JLINK_ReadMem (0x20000F80, 0x0004 Bytes, ...) -- CPU_ReadMem(64 bytes @ 0x20000F80) -- Updating C cache (64 bytes @ 0x20000F80) -- Read from C cache (4 bytes @ 0x20000F80) - Data: 47 01 00 00  returns 0x00 (0001ms, 0670ms total)
T152C 015:769 JLINK_ReadMem (0x20000F7C, 0x0004 Bytes, ...) -- CPU_ReadMem(64 bytes @ 0x20000F40) -- Updating C cache (64 bytes @ 0x20000F40) -- Read from C cache (4 bytes @ 0x20000F7C) - Data: B8 00 00 20  returns 0x00 (0002ms, 0672ms total)
T152C 015:771 JLINK_ReadMem (0x20000F84, 0x0002 Bytes, ...) -- Read from C cache (2 bytes @ 0x20000F84) - Data: 02 00  returns 0x00 (0000ms, 0672ms total)
T152C 015:771 JLINK_ReadMem (0x20000F86, 0x0002 Bytes, ...) -- Read from C cache (2 bytes @ 0x20000F86) - Data: 00 00  returns 0x00 (0000ms, 0672ms total)
T152C 015:771 JLINK_ReadMem (0x20000F88, 0x0004 Bytes, ...) -- Read from C cache (4 bytes @ 0x20000F88) - Data: F0 01 00 00  returns 0x00 (0000ms, 0672ms total)
T152C 016:752 JLINK_ReadMem (0x200000B8, 0x0004 Bytes, ...) -- Read from C cache (4 bytes @ 0x200000B8) - Data: 47 01 00 00  returns 0x00 (0000ms, 0672ms total)
T29BC 020:830 JLINK_Step() -- Read from C cache (2 bytes @ 0x08007346) -- CPU_ReadMem(4 bytes @ 0xE0001004) -- Read from C cache (2 bytes @ 0x08007348) -- Not simulated -- CPU_WriteMem(4 bytes @ 0xE0002008)  returns 0x00 (0007ms, 0679ms total)
T29BC 020:837 JLINK_ReadReg(R15 (PC))  returns 0x0800734A (0000ms, 0679ms total)
T29BC 020:837 JLINK_ReadReg(XPSR)  returns 0x01000000 (0000ms, 0679ms total)
T29BC 020:837 JLINK_SetBPEx(Addr = 0x08007346, Type = 0xFFFFFFF2)  returns 0x00000003 (0000ms, 0679ms total)
T29BC 020:837 JLINK_Go() -- CPU_WriteMem(4 bytes @ 0xE0002000) -- CPU_WriteMem(4 bytes @ 0xE0002008) (0002ms, 0681ms total)
T29BC 020:940 JLINK_IsHalted()  returns TRUE (0003ms, 0684ms total)
T29BC 020:943 JLINK_Halt()  returns 0x00 (0000ms, 0681ms total)
T29BC 020:943 JLINK_IsHalted()  returns TRUE (0000ms, 0681ms total)
T29BC 020:943 JLINK_IsHalted()  returns TRUE (0000ms, 0681ms total)
T29BC 020:943 JLINK_IsHalted()  returns TRUE (0000ms, 0681ms total)
T29BC 020:943 JLINK_ReadReg(R15 (PC))  returns 0x08007346 (0000ms, 0681ms total)
T29BC 020:943 JLINK_ReadReg(XPSR)  returns 0x81000000 (0000ms, 0681ms total)
T29BC 020:943 JLINK_ClrBPEx(BPHandle = 0x00000003)  returns 0x00 (0000ms, 0681ms total)
T29BC 020:944 JLINK_ReadMemU32(0xE000ED30, 0x0001 Items, ...) -- CPU_ReadMem(4 bytes @ 0xE000ED30) - Data: 03 00 00 00  returns 0x01 (0000ms, 0682ms total)
T29BC 020:944 JLINK_ReadMemU32(0xE0001028, 0x0001 Items, ...) -- CPU_ReadMem(4 bytes @ 0xE0001028) - Data: 00 00 00 00  returns 0x01 (0001ms, 0683ms total)
T29BC 020:945 JLINK_ReadMemU32(0xE0001038, 0x0001 Items, ...) -- CPU_ReadMem(4 bytes @ 0xE0001038) - Data: 00 02 00 00  returns 0x01 (0000ms, 0683ms total)
T29BC 020:945 JLINK_ReadMemU32(0xE0001048, 0x0001 Items, ...) -- CPU_ReadMem(4 bytes @ 0xE0001048) - Data: 00 00 00 00  returns 0x01 (0001ms, 0684ms total)
T29BC 020:946 JLINK_ReadMemU32(0xE0001058, 0x0001 Items, ...) -- CPU_ReadMem(4 bytes @ 0xE0001058) - Data: 00 00 00 00  returns 0x01 (0001ms, 0685ms total)
T29BC 020:947 JLINK_ReadReg(R0)  returns 0x000000F3 (0000ms, 0685ms total)
T29BC 020:947 JLINK_ReadReg(R1)  returns 0x200000B8 (0000ms, 0685ms total)
T29BC 020:947 JLINK_ReadReg(R2)  returns 0x00000000 (0000ms, 0685ms total)
T29BC 020:947 JLINK_ReadReg(R3)  returns 0x00000000 (0000ms, 0685ms total)
T29BC 020:947 JLINK_ReadReg(R4)  returns 0x4373186C (0000ms, 0685ms total)
T29BC 020:947 JLINK_ReadReg(R5)  returns 0x20000934 (0000ms, 0685ms total)
T29BC 020:947 JLINK_ReadReg(R6)  returns 0x00000000 (0000ms, 0685ms total)
T29BC 020:947 JLINK_ReadReg(R7)  returns 0x00000000 (0000ms, 0685ms total)
T29BC 020:947 JLINK_ReadReg(R8)  returns 0x00000000 (0000ms, 0685ms total)
T29BC 020:947 JLINK_ReadReg(R9)  returns 0x20000160 (0000ms, 0685ms total)
T29BC 020:947 JLINK_ReadReg(R10)  returns 0x0800A1D4 (0000ms, 0685ms total)
T29BC 020:947 JLINK_ReadReg(R11)  returns 0x00000000 (0000ms, 0685ms total)
T29BC 020:947 JLINK_ReadReg(R12)  returns 0x00F3186C (0000ms, 0685ms total)
T29BC 020:947 JLINK_ReadReg(R13 (SP))  returns 0x20000F7C (0000ms, 0685ms total)
T29BC 020:947 JLINK_ReadReg(R14)  returns 0x080072BF (0000ms, 0685ms total)
T29BC 020:947 JLINK_ReadReg(R15 (PC))  returns 0x08007346 (0000ms, 0685ms total)
T29BC 020:947 JLINK_ReadReg(XPSR)  returns 0x81000000 (0000ms, 0685ms total)
T29BC 020:947 JLINK_ReadReg(MSP)  returns 0x20000F7C (0000ms, 0685ms total)
T29BC 020:947 JLINK_ReadReg(PSP)  returns 0x20000800 (0000ms, 0685ms total)
T29BC 020:947 JLINK_ReadReg(CFBP)  returns 0x00000000 (0000ms, 0685ms total)
T152C 020:947 JLINK_ReadMem (0x200000B0, 0x0004 Bytes, ...) -- CPU_ReadMem(64 bytes @ 0x20000080) -- Updating C cache (64 bytes @ 0x20000080) -- Read from C cache (4 bytes @ 0x200000B0) - Data: F3 00 00 00  returns 0x00 (0002ms, 0687ms total)
T152C 020:951 JLINK_ReadMem (0x20000F7C, 0x0004 Bytes, ...) -- CPU_ReadMem(64 bytes @ 0x20000F40) -- Updating C cache (64 bytes @ 0x20000F40) -- Read from C cache (4 bytes @ 0x20000F7C) - Data: B8 00 00 20  returns 0x00 (0001ms, 0688ms total)
T152C 020:952 JLINK_ReadMem (0x200000B8, 0x0004 Bytes, ...) -- Read from C cache (4 bytes @ 0x200000B8) - Data: F3 00 00 00  returns 0x00 (0000ms, 0688ms total)
T152C 020:953 JLINK_ReadMem (0x20000F80, 0x0004 Bytes, ...) -- CPU_ReadMem(64 bytes @ 0x20000F80) -- Updating C cache (64 bytes @ 0x20000F80) -- Read from C cache (4 bytes @ 0x20000F80) - Data: F3 00 00 00  returns 0x00 (0001ms, 0689ms total)
T152C 020:954 JLINK_ReadMem (0x20000F84, 0x0002 Bytes, ...) -- Read from C cache (2 bytes @ 0x20000F84) - Data: 02 00  returns 0x00 (0000ms, 0689ms total)
T152C 020:954 JLINK_ReadMem (0x20000F86, 0x0002 Bytes, ...) -- Read from C cache (2 bytes @ 0x20000F86) - Data: 00 00  returns 0x00 (0000ms, 0689ms total)
T152C 020:954 JLINK_ReadMem (0x20000F88, 0x0004 Bytes, ...) -- Read from C cache (4 bytes @ 0x20000F88) - Data: AC FF FF FF  returns 0x00 (0000ms, 0689ms total)
T29BC 021:352 JLINK_Step() -- CPU_ReadMem(64 bytes @ 0x08007340) -- Updating C cache (64 bytes @ 0x08007340) -- Read from C cache (2 bytes @ 0x08007346) -- CPU_ReadMem(4 bytes @ 0xE0001004) -- Read from C cache (2 bytes @ 0x08007348) -- Not simulated -- CPU_WriteMem(4 bytes @ 0xE0002008)  returns 0x00 (0008ms, 0697ms total)
T29BC 021:360 JLINK_ReadReg(R15 (PC))  returns 0x0800734A (0000ms, 0697ms total)
T29BC 021:360 JLINK_ReadReg(XPSR)  returns 0x81000000 (0000ms, 0697ms total)
T29BC 021:360 JLINK_SetBPEx(Addr = 0x08007346, Type = 0xFFFFFFF2)  returns 0x00000004 (0000ms, 0697ms total)
T29BC 021:360 JLINK_Go() -- CPU_WriteMem(4 bytes @ 0xE0002000) -- CPU_WriteMem(4 bytes @ 0xE0002008) (0002ms, 0699ms total)
T29BC 021:463 JLINK_IsHalted()  returns TRUE (0003ms, 0702ms total)
T29BC 021:466 JLINK_Halt()  returns 0x00 (0000ms, 0699ms total)
T29BC 021:466 JLINK_IsHalted()  returns TRUE (0000ms, 0699ms total)
T29BC 021:466 JLINK_IsHalted()  returns TRUE (0000ms, 0699ms total)
T29BC 021:466 JLINK_IsHalted()  returns TRUE (0000ms, 0699ms total)
T29BC 021:466 JLINK_ReadReg(R15 (PC))  returns 0x08007346 (0001ms, 0700ms total)
T29BC 021:467 JLINK_ReadReg(XPSR)  returns 0x81000000 (0000ms, 0700ms total)
T29BC 021:467 JLINK_ClrBPEx(BPHandle = 0x00000004)  returns 0x00 (0000ms, 0700ms total)
T29BC 021:467 JLINK_ReadMemU32(0xE000ED30, 0x0001 Items, ...) -- CPU_ReadMem(4 bytes @ 0xE000ED30) - Data: 03 00 00 00  returns 0x01 (0001ms, 0701ms total)
T29BC 021:468 JLINK_ReadMemU32(0xE0001028, 0x0001 Items, ...) -- CPU_ReadMem(4 bytes @ 0xE0001028) - Data: 00 00 00 00  returns 0x01 (0001ms, 0702ms total)
T29BC 021:469 JLINK_ReadMemU32(0xE0001038, 0x0001 Items, ...) -- CPU_ReadMem(4 bytes @ 0xE0001038) - Data: 00 02 00 00  returns 0x01 (0000ms, 0702ms total)
T29BC 021:469 JLINK_ReadMemU32(0xE0001048, 0x0001 Items, ...) -- CPU_ReadMem(4 bytes @ 0xE0001048) - Data: 00 00 00 00  returns 0x01 (0001ms, 0703ms total)
T29BC 021:470 JLINK_ReadMemU32(0xE0001058, 0x0001 Items, ...) -- CPU_ReadMem(4 bytes @ 0xE0001058) - Data: 00 00 00 00  returns 0x01 (0001ms, 0704ms total)
T29BC 021:471 JLINK_ReadReg(R0)  returns 0x000002E3 (0000ms, 0704ms total)
T29BC 021:471 JLINK_ReadReg(R1)  returns 0x200000B8 (0000ms, 0704ms total)
T29BC 021:471 JLINK_ReadReg(R2)  returns 0x00000000 (0000ms, 0704ms total)
T29BC 021:471 JLINK_ReadReg(R3)  returns 0x00000000 (0000ms, 0704ms total)
T29BC 021:471 JLINK_ReadReg(R4)  returns 0x4438F59C (0000ms, 0704ms total)
T29BC 021:471 JLINK_ReadReg(R5)  returns 0x20000934 (0000ms, 0704ms total)
T29BC 021:471 JLINK_ReadReg(R6)  returns 0x00000000 (0000ms, 0704ms total)
T29BC 021:471 JLINK_ReadReg(R7)  returns 0x00000000 (0000ms, 0704ms total)
T29BC 021:471 JLINK_ReadReg(R8)  returns 0x00000000 (0000ms, 0704ms total)
T29BC 021:471 JLINK_ReadReg(R9)  returns 0x20000160 (0000ms, 0704ms total)
T29BC 021:471 JLINK_ReadReg(R10)  returns 0x0800A1D4 (0000ms, 0704ms total)
T29BC 021:471 JLINK_ReadReg(R11)  returns 0x00000000 (0000ms, 0704ms total)
T29BC 021:471 JLINK_ReadReg(R12)  returns 0x00B8F59C (0000ms, 0704ms total)
T29BC 021:471 JLINK_ReadReg(R13 (SP))  returns 0x20000F7C (0001ms, 0705ms total)
T29BC 021:472 JLINK_ReadReg(R14)  returns 0x080072BF (0000ms, 0705ms total)
T29BC 021:472 JLINK_ReadReg(R15 (PC))  returns 0x08007346 (0000ms, 0705ms total)
T29BC 021:472 JLINK_ReadReg(XPSR)  returns 0x81000000 (0000ms, 0705ms total)
T29BC 021:472 JLINK_ReadReg(MSP)  returns 0x20000F7C (0000ms, 0705ms total)
T29BC 021:472 JLINK_ReadReg(PSP)  returns 0x20000800 (0000ms, 0705ms total)
T29BC 021:472 JLINK_ReadReg(CFBP)  returns 0x00000000 (0000ms, 0705ms total)
T152C 021:472 JLINK_ReadMem (0x200000B0, 0x0004 Bytes, ...) -- CPU_ReadMem(64 bytes @ 0x20000080) -- Updating C cache (64 bytes @ 0x20000080) -- Read from C cache (4 bytes @ 0x200000B0) - Data: E3 02 00 00  returns 0x00 (0002ms, 0707ms total)
T152C 021:475 JLINK_ReadMem (0x20000F7C, 0x0004 Bytes, ...) -- CPU_ReadMem(64 bytes @ 0x20000F40) -- Updating C cache (64 bytes @ 0x20000F40) -- Read from C cache (4 bytes @ 0x20000F7C) - Data: B8 00 00 20  returns 0x00 (0002ms, 0709ms total)
T152C 021:477 JLINK_ReadMem (0x200000B8, 0x0004 Bytes, ...) -- Read from C cache (4 bytes @ 0x200000B8) - Data: E3 02 00 00  returns 0x00 (0000ms, 0709ms total)
T152C 021:477 JLINK_ReadMem (0x20000F80, 0x0004 Bytes, ...) -- CPU_ReadMem(64 bytes @ 0x20000F80) -- Updating C cache (64 bytes @ 0x20000F80) -- Read from C cache (4 bytes @ 0x20000F80) - Data: E3 02 00 00  returns 0x00 (0002ms, 0711ms total)
T152C 021:479 JLINK_ReadMem (0x20000F84, 0x0002 Bytes, ...) -- Read from C cache (2 bytes @ 0x20000F84) - Data: 02 00  returns 0x00 (0000ms, 0711ms total)
T152C 021:479 JLINK_ReadMem (0x20000F86, 0x0002 Bytes, ...) -- Read from C cache (2 bytes @ 0x20000F86) - Data: 00 00  returns 0x00 (0000ms, 0711ms total)
T152C 021:479 JLINK_ReadMem (0x20000F88, 0x0004 Bytes, ...) -- Read from C cache (4 bytes @ 0x20000F88) - Data: F0 01 00 00  returns 0x00 (0000ms, 0711ms total)
T29BC 021:696 JLINK_Step() -- CPU_ReadMem(64 bytes @ 0x08007340) -- Updating C cache (64 bytes @ 0x08007340) -- Read from C cache (2 bytes @ 0x08007346) -- CPU_ReadMem(4 bytes @ 0xE0001004) -- Read from C cache (2 bytes @ 0x08007348) -- Not simulated -- CPU_WriteMem(4 bytes @ 0xE0002008)  returns 0x00 (0007ms, 0718ms total)
T29BC 021:703 JLINK_ReadReg(R15 (PC))  returns 0x0800734A (0000ms, 0718ms total)
T29BC 021:703 JLINK_ReadReg(XPSR)  returns 0x81000000 (0000ms, 0718ms total)
T29BC 021:703 JLINK_SetBPEx(Addr = 0x08007346, Type = 0xFFFFFFF2)  returns 0x00000005 (0000ms, 0718ms total)
T29BC 021:703 JLINK_Go() -- CPU_WriteMem(4 bytes @ 0xE0002000) -- CPU_WriteMem(4 bytes @ 0xE0002008) (0003ms, 0721ms total)
T29BC 021:808 JLINK_IsHalted()  returns TRUE (0003ms, 0724ms total)
T29BC 021:811 JLINK_Halt()  returns 0x00 (0001ms, 0722ms total)
T29BC 021:812 JLINK_IsHalted()  returns TRUE (0000ms, 0722ms total)
T29BC 021:812 JLINK_IsHalted()  returns TRUE (0000ms, 0722ms total)
T29BC 021:812 JLINK_IsHalted()  returns TRUE (0000ms, 0722ms total)
T29BC 021:812 JLINK_ReadReg(R15 (PC))  returns 0x08007346 (0000ms, 0722ms total)
T29BC 021:812 JLINK_ReadReg(XPSR)  returns 0x81000000 (0000ms, 0722ms total)
T29BC 021:812 JLINK_ClrBPEx(BPHandle = 0x00000005)  returns 0x00 (0000ms, 0722ms total)
T29BC 021:812 JLINK_ReadMemU32(0xE000ED30, 0x0001 Items, ...) -- CPU_ReadMem(4 bytes @ 0xE000ED30) - Data: 03 00 00 00  returns 0x01 (0000ms, 0722ms total)
T29BC 021:812 JLINK_ReadMemU32(0xE0001028, 0x0001 Items, ...) -- CPU_ReadMem(4 bytes @ 0xE0001028) - Data: 00 00 00 00  returns 0x01 (0001ms, 0723ms total)
T29BC 021:813 JLINK_ReadMemU32(0xE0001038, 0x0001 Items, ...) -- CPU_ReadMem(4 bytes @ 0xE0001038) - Data: 00 02 00 00  returns 0x01 (0001ms, 0724ms total)
T29BC 021:814 JLINK_ReadMemU32(0xE0001048, 0x0001 Items, ...) -- CPU_ReadMem(4 bytes @ 0xE0001048) - Data: 00 00 00 00  returns 0x01 (0001ms, 0725ms total)
T29BC 021:815 JLINK_ReadMemU32(0xE0001058, 0x0001 Items, ...) -- CPU_ReadMem(4 bytes @ 0xE0001058) - Data: 00 00 00 00  returns 0x01 (0001ms, 0726ms total)
T29BC 021:816 JLINK_ReadReg(R0)  returns 0x000002E3 (0000ms, 0726ms total)
T29BC 021:816 JLINK_ReadReg(R1)  returns 0x200000B8 (0000ms, 0726ms total)
T29BC 021:816 JLINK_ReadReg(R2)  returns 0x00000000 (0000ms, 0726ms total)
T29BC 021:816 JLINK_ReadReg(R3)  returns 0x00000000 (0000ms, 0726ms total)
T29BC 021:816 JLINK_ReadReg(R4)  returns 0x4438F59C (0000ms, 0726ms total)
T29BC 021:816 JLINK_ReadReg(R5)  returns 0x20000934 (0000ms, 0726ms total)
T29BC 021:816 JLINK_ReadReg(R6)  returns 0x00000000 (0000ms, 0726ms total)
T29BC 021:816 JLINK_ReadReg(R7)  returns 0x00000000 (0000ms, 0726ms total)
T29BC 021:816 JLINK_ReadReg(R8)  returns 0x00000000 (0000ms, 0726ms total)
T29BC 021:816 JLINK_ReadReg(R9)  returns 0x20000160 (0000ms, 0726ms total)
T29BC 021:816 JLINK_ReadReg(R10)  returns 0x0800A1D4 (0000ms, 0726ms total)
T29BC 021:816 JLINK_ReadReg(R11)  returns 0x00000000 (0000ms, 0726ms total)
T29BC 021:816 JLINK_ReadReg(R12)  returns 0x00B8F59C (0001ms, 0727ms total)
T29BC 021:817 JLINK_ReadReg(R13 (SP))  returns 0x20000F7C (0000ms, 0727ms total)
T29BC 021:817 JLINK_ReadReg(R14)  returns 0x080072BF (0000ms, 0727ms total)
T29BC 021:817 JLINK_ReadReg(R15 (PC))  returns 0x08007346 (0000ms, 0727ms total)
T29BC 021:817 JLINK_ReadReg(XPSR)  returns 0x81000000 (0000ms, 0727ms total)
T29BC 021:817 JLINK_ReadReg(MSP)  returns 0x20000F7C (0000ms, 0727ms total)
T29BC 021:817 JLINK_ReadReg(PSP)  returns 0x20000800 (0000ms, 0727ms total)
T29BC 021:817 JLINK_ReadReg(CFBP)  returns 0x00000000 (0000ms, 0727ms total)
T152C 021:817 JLINK_ReadMem (0x200000B0, 0x0004 Bytes, ...) -- CPU_ReadMem(64 bytes @ 0x20000080) -- Updating C cache (64 bytes @ 0x20000080) -- Read from C cache (4 bytes @ 0x200000B0) - Data: E3 02 00 00  returns 0x00 (0001ms, 0728ms total)
T152C 021:820 JLINK_ReadMem (0x20000F7C, 0x0004 Bytes, ...) -- CPU_ReadMem(64 bytes @ 0x20000F40) -- Updating C cache (64 bytes @ 0x20000F40) -- Read from C cache (4 bytes @ 0x20000F7C) - Data: B8 00 00 20  returns 0x00 (0001ms, 0729ms total)
T152C 021:821 JLINK_ReadMem (0x200000B8, 0x0004 Bytes, ...) -- Read from C cache (4 bytes @ 0x200000B8) - Data: E3 02 00 00  returns 0x00 (0000ms, 0729ms total)
T152C 021:822 JLINK_ReadMem (0x20000F80, 0x0004 Bytes, ...) -- CPU_ReadMem(64 bytes @ 0x20000F80) -- Updating C cache (64 bytes @ 0x20000F80) -- Read from C cache (4 bytes @ 0x20000F80) - Data: E3 02 00 00  returns 0x00 (0001ms, 0730ms total)
T152C 021:824 JLINK_ReadMem (0x20000F84, 0x0002 Bytes, ...) -- Read from C cache (2 bytes @ 0x20000F84) - Data: 02 00  returns 0x00 (0000ms, 0730ms total)
T152C 021:824 JLINK_ReadMem (0x20000F86, 0x0002 Bytes, ...) -- Read from C cache (2 bytes @ 0x20000F86) - Data: 00 00  returns 0x00 (0000ms, 0730ms total)
T152C 021:824 JLINK_ReadMem (0x20000F88, 0x0004 Bytes, ...) -- Read from C cache (4 bytes @ 0x20000F88) - Data: 00 00 00 00  returns 0x00 (0000ms, 0730ms total)
T29BC 021:937 JLINK_Step() -- CPU_ReadMem(64 bytes @ 0x08007340) -- Updating C cache (64 bytes @ 0x08007340) -- Read from C cache (2 bytes @ 0x08007346) -- CPU_ReadMem(4 bytes @ 0xE0001004) -- Read from C cache (2 bytes @ 0x08007348) -- Not simulated -- CPU_WriteMem(4 bytes @ 0xE0002008)  returns 0x00 (0007ms, 0737ms total)
T29BC 021:944 JLINK_ReadReg(R15 (PC))  returns 0x0800734A (0000ms, 0737ms total)
T29BC 021:944 JLINK_ReadReg(XPSR)  returns 0x81000000 (0000ms, 0737ms total)
T29BC 021:944 JLINK_SetBPEx(Addr = 0x08007346, Type = 0xFFFFFFF2)  returns 0x00000006 (0000ms, 0737ms total)
T29BC 021:944 JLINK_Go() -- CPU_WriteMem(4 bytes @ 0xE0002000) -- CPU_WriteMem(4 bytes @ 0xE0002008) (0002ms, 0739ms total)
T29BC 022:047 JLINK_IsHalted()  returns TRUE (0004ms, 0743ms total)
T29BC 022:051 JLINK_Halt()  returns 0x00 (0000ms, 0739ms total)
T29BC 022:051 JLINK_IsHalted()  returns TRUE (0000ms, 0739ms total)
T29BC 022:051 JLINK_IsHalted()  returns TRUE (0000ms, 0739ms total)
T29BC 022:051 JLINK_IsHalted()  returns TRUE (0000ms, 0739ms total)
T29BC 022:051 JLINK_ReadReg(R15 (PC))  returns 0x08007346 (0000ms, 0739ms total)
T29BC 022:051 JLINK_ReadReg(XPSR)  returns 0x81000000 (0000ms, 0739ms total)
T29BC 022:051 JLINK_ClrBPEx(BPHandle = 0x00000006)  returns 0x00 (0000ms, 0739ms total)
T29BC 022:051 JLINK_ReadMemU32(0xE000ED30, 0x0001 Items, ...) -- CPU_ReadMem(4 bytes @ 0xE000ED30) - Data: 03 00 00 00  returns 0x01 (0001ms, 0740ms total)
T29BC 022:052 JLINK_ReadMemU32(0xE0001028, 0x0001 Items, ...) -- CPU_ReadMem(4 bytes @ 0xE0001028) - Data: 00 00 00 00  returns 0x01 (0001ms, 0741ms total)
T29BC 022:053 JLINK_ReadMemU32(0xE0001038, 0x0001 Items, ...) -- CPU_ReadMem(4 bytes @ 0xE0001038) - Data: 00 02 00 00  returns 0x01 (0000ms, 0741ms total)
T29BC 022:053 JLINK_ReadMemU32(0xE0001048, 0x0001 Items, ...) -- CPU_ReadMem(4 bytes @ 0xE0001048) - Data: 00 00 00 00  returns 0x01 (0001ms, 0742ms total)
T29BC 022:054 JLINK_ReadMemU32(0xE0001058, 0x0001 Items, ...) -- CPU_ReadMem(4 bytes @ 0xE0001058) - Data: 00 00 00 00  returns 0x01 (0001ms, 0743ms total)
T29BC 022:055 JLINK_ReadReg(R0)  returns 0x00000480 (0000ms, 0743ms total)
T29BC 022:055 JLINK_ReadReg(R1)  returns 0x200000B8 (0000ms, 0743ms total)
T29BC 022:055 JLINK_ReadReg(R2)  returns 0x00000000 (0000ms, 0743ms total)
T29BC 022:055 JLINK_ReadReg(R3)  returns 0x00000000 (0000ms, 0743ms total)
T29BC 022:055 JLINK_ReadReg(R4)  returns 0x449000FE (0000ms, 0743ms total)
T29BC 022:055 JLINK_ReadReg(R5)  returns 0x20000934 (0000ms, 0743ms total)
T29BC 022:055 JLINK_ReadReg(R6)  returns 0x00000000 (0000ms, 0743ms total)
T29BC 022:055 JLINK_ReadReg(R7)  returns 0x00000000 (0000ms, 0743ms total)
T29BC 022:055 JLINK_ReadReg(R8)  returns 0x00000000 (0000ms, 0743ms total)
T29BC 022:055 JLINK_ReadReg(R9)  returns 0x20000160 (0000ms, 0743ms total)
T29BC 022:055 JLINK_ReadReg(R10)  returns 0x0800A1D4 (0000ms, 0743ms total)
T29BC 022:055 JLINK_ReadReg(R11)  returns 0x00000000 (0000ms, 0743ms total)
T29BC 022:055 JLINK_ReadReg(R12)  returns 0x80000000 (0000ms, 0743ms total)
T29BC 022:055 JLINK_ReadReg(R13 (SP))  returns 0x20000F7C (0000ms, 0743ms total)
T29BC 022:055 JLINK_ReadReg(R14)  returns 0x080072BF (0000ms, 0743ms total)
T29BC 022:055 JLINK_ReadReg(R15 (PC))  returns 0x08007346 (0000ms, 0743ms total)
T29BC 022:055 JLINK_ReadReg(XPSR)  returns 0x81000000 (0000ms, 0743ms total)
T29BC 022:055 JLINK_ReadReg(MSP)  returns 0x20000F7C (0000ms, 0743ms total)
T29BC 022:055 JLINK_ReadReg(PSP)  returns 0x20000800 (0000ms, 0743ms total)
T29BC 022:055 JLINK_ReadReg(CFBP)  returns 0x00000000 (0000ms, 0743ms total)
T152C 022:056 JLINK_ReadMem (0x200000B0, 0x0004 Bytes, ...) -- CPU_ReadMem(64 bytes @ 0x20000080) -- Updating C cache (64 bytes @ 0x20000080) -- Read from C cache (4 bytes @ 0x200000B0) - Data: 80 04 00 00  returns 0x00 (0001ms, 0744ms total)
T152C 022:058 JLINK_ReadMem (0x20000F7C, 0x0004 Bytes, ...) -- CPU_ReadMem(64 bytes @ 0x20000F40) -- Updating C cache (64 bytes @ 0x20000F40) -- Read from C cache (4 bytes @ 0x20000F7C) - Data: B8 00 00 20  returns 0x00 (0001ms, 0745ms total)
T152C 022:059 JLINK_ReadMem (0x200000B8, 0x0004 Bytes, ...) -- Read from C cache (4 bytes @ 0x200000B8) - Data: 80 04 00 00  returns 0x00 (0000ms, 0745ms total)
T152C 022:060 JLINK_ReadMem (0x20000F80, 0x0004 Bytes, ...) -- CPU_ReadMem(64 bytes @ 0x20000F80) -- Updating C cache (64 bytes @ 0x20000F80) -- Read from C cache (4 bytes @ 0x20000F80) - Data: 80 04 00 00  returns 0x00 (0001ms, 0746ms total)
T152C 022:061 JLINK_ReadMem (0x20000F84, 0x0002 Bytes, ...) -- Read from C cache (2 bytes @ 0x20000F84) - Data: 02 00  returns 0x00 (0000ms, 0746ms total)
T152C 022:061 JLINK_ReadMem (0x20000F86, 0x0002 Bytes, ...) -- Read from C cache (2 bytes @ 0x20000F86) - Data: 00 00  returns 0x00 (0000ms, 0746ms total)
T152C 022:061 JLINK_ReadMem (0x20000F88, 0x0004 Bytes, ...) -- Read from C cache (4 bytes @ 0x20000F88) - Data: 9D 01 00 00  returns 0x00 (0000ms, 0746ms total)
T29BC 022:180 JLINK_Step() -- CPU_ReadMem(64 bytes @ 0x08007340) -- Updating C cache (64 bytes @ 0x08007340) -- Read from C cache (2 bytes @ 0x08007346) -- CPU_ReadMem(4 bytes @ 0xE0001004) -- Read from C cache (2 bytes @ 0x08007348) -- Not simulated -- CPU_WriteMem(4 bytes @ 0xE0002008)  returns 0x00 (0007ms, 0753ms total)
T29BC 022:187 JLINK_ReadReg(R15 (PC))  returns 0x0800734A (0000ms, 0753ms total)
T29BC 022:187 JLINK_ReadReg(XPSR)  returns 0x81000000 (0000ms, 0753ms total)
T29BC 022:187 JLINK_SetBPEx(Addr = 0x08007346, Type = 0xFFFFFFF2)  returns 0x00000007 (0000ms, 0753ms total)
T29BC 022:187 JLINK_Go() -- CPU_WriteMem(4 bytes @ 0xE0002000) -- CPU_WriteMem(4 bytes @ 0xE0002008) (0003ms, 0756ms total)
T29BC 022:291 JLINK_IsHalted()  returns TRUE (0003ms, 0759ms total)
T29BC 022:294 JLINK_Halt()  returns 0x00 (0000ms, 0756ms total)
T29BC 022:294 JLINK_IsHalted()  returns TRUE (0000ms, 0756ms total)
T29BC 022:294 JLINK_IsHalted()  returns TRUE (0000ms, 0756ms total)
T29BC 022:294 JLINK_IsHalted()  returns TRUE (0000ms, 0756ms total)
T29BC 022:294 JLINK_ReadReg(R15 (PC))  returns 0x08007346 (0000ms, 0756ms total)
T29BC 022:294 JLINK_ReadReg(XPSR)  returns 0x81000000 (0000ms, 0756ms total)
T29BC 022:294 JLINK_ClrBPEx(BPHandle = 0x00000007)  returns 0x00 (0000ms, 0756ms total)
T29BC 022:294 JLINK_ReadMemU32(0xE000ED30, 0x0001 Items, ...) -- CPU_ReadMem(4 bytes @ 0xE000ED30) - Data: 03 00 00 00  returns 0x01 (0001ms, 0757ms total)
T29BC 022:295 JLINK_ReadMemU32(0xE0001028, 0x0001 Items, ...) -- CPU_ReadMem(4 bytes @ 0xE0001028) - Data: 00 00 00 00  returns 0x01 (0001ms, 0758ms total)
T29BC 022:296 JLINK_ReadMemU32(0xE0001038, 0x0001 Items, ...) -- CPU_ReadMem(4 bytes @ 0xE0001038) - Data: 00 02 00 00  returns 0x01 (0001ms, 0759ms total)
T29BC 022:297 JLINK_ReadMemU32(0xE0001048, 0x0001 Items, ...) -- CPU_ReadMem(4 bytes @ 0xE0001048) - Data: 00 00 00 00  returns 0x01 (0001ms, 0760ms total)
T29BC 022:298 JLINK_ReadMemU32(0xE0001058, 0x0001 Items, ...) -- CPU_ReadMem(4 bytes @ 0xE0001058) - Data: 00 00 00 00  returns 0x01 (0000ms, 0760ms total)
T29BC 022:298 JLINK_ReadReg(R0)  returns 0x000003DC (0000ms, 0760ms total)
T29BC 022:298 JLINK_ReadReg(R1)  returns 0x200000B8 (0000ms, 0760ms total)
T29BC 022:298 JLINK_ReadReg(R2)  returns 0x00000000 (0001ms, 0761ms total)
T29BC 022:299 JLINK_ReadReg(R3)  returns 0x00000000 (0000ms, 0761ms total)
T29BC 022:299 JLINK_ReadReg(R4)  returns 0x44770D9B (0000ms, 0761ms total)
T29BC 022:299 JLINK_ReadReg(R5)  returns 0x20000934 (0000ms, 0761ms total)
T29BC 022:299 JLINK_ReadReg(R6)  returns 0x00000000 (0000ms, 0761ms total)
T29BC 022:299 JLINK_ReadReg(R7)  returns 0x00000000 (0000ms, 0761ms total)
T29BC 022:299 JLINK_ReadReg(R8)  returns 0x00000000 (0000ms, 0761ms total)
T29BC 022:299 JLINK_ReadReg(R9)  returns 0x20000160 (0000ms, 0761ms total)
T29BC 022:299 JLINK_ReadReg(R10)  returns 0x0800A1D4 (0000ms, 0761ms total)
T29BC 022:299 JLINK_ReadReg(R11)  returns 0x00000000 (0000ms, 0761ms total)
T29BC 022:299 JLINK_ReadReg(R12)  returns 0x00F70D9B (0000ms, 0761ms total)
T29BC 022:299 JLINK_ReadReg(R13 (SP))  returns 0x20000F7C (0000ms, 0761ms total)
T29BC 022:299 JLINK_ReadReg(R14)  returns 0x080072BF (0000ms, 0761ms total)
T29BC 022:299 JLINK_ReadReg(R15 (PC))  returns 0x08007346 (0000ms, 0761ms total)
T29BC 022:299 JLINK_ReadReg(XPSR)  returns 0x81000000 (0000ms, 0761ms total)
T29BC 022:299 JLINK_ReadReg(MSP)  returns 0x20000F7C (0000ms, 0761ms total)
T29BC 022:299 JLINK_ReadReg(PSP)  returns 0x20000800 (0000ms, 0761ms total)
T29BC 022:299 JLINK_ReadReg(CFBP)  returns 0x00000000 (0000ms, 0761ms total)
T152C 022:299 JLINK_ReadMem (0x200000B0, 0x0004 Bytes, ...) -- CPU_ReadMem(64 bytes @ 0x20000080) -- Updating C cache (64 bytes @ 0x20000080) -- Read from C cache (4 bytes @ 0x200000B0) - Data: DC 03 00 00  returns 0x00 (0001ms, 0762ms total)
T152C 022:302 JLINK_ReadMem (0x20000F7C, 0x0004 Bytes, ...) -- CPU_ReadMem(64 bytes @ 0x20000F40) -- Updating C cache (64 bytes @ 0x20000F40) -- Read from C cache (4 bytes @ 0x20000F7C) - Data: B8 00 00 20  returns 0x00 (0001ms, 0763ms total)
T152C 022:303 JLINK_ReadMem (0x200000B8, 0x0004 Bytes, ...) -- Read from C cache (4 bytes @ 0x200000B8) - Data: DC 03 00 00  returns 0x00 (0000ms, 0763ms total)
T152C 022:304 JLINK_ReadMem (0x20000F80, 0x0004 Bytes, ...) -- CPU_ReadMem(64 bytes @ 0x20000F80) -- Updating C cache (64 bytes @ 0x20000F80) -- Read from C cache (4 bytes @ 0x20000F80) - Data: DC 03 00 00  returns 0x00 (0001ms, 0764ms total)
T152C 022:305 JLINK_ReadMem (0x20000F84, 0x0002 Bytes, ...) -- Read from C cache (2 bytes @ 0x20000F84) - Data: 02 00  returns 0x00 (0000ms, 0764ms total)
T152C 022:305 JLINK_ReadMem (0x20000F86, 0x0002 Bytes, ...) -- Read from C cache (2 bytes @ 0x20000F86) - Data: 00 00  returns 0x00 (0000ms, 0764ms total)
T152C 022:305 JLINK_ReadMem (0x20000F88, 0x0004 Bytes, ...) -- Read from C cache (4 bytes @ 0x20000F88) - Data: 5C FF FF FF  returns 0x00 (0000ms, 0764ms total)
T29BC 022:339 JLINK_Step() -- CPU_ReadMem(64 bytes @ 0x08007340) -- Updating C cache (64 bytes @ 0x08007340) -- Read from C cache (2 bytes @ 0x08007346) -- CPU_ReadMem(4 bytes @ 0xE0001004) -- Read from C cache (2 bytes @ 0x08007348) -- Not simulated -- CPU_WriteMem(4 bytes @ 0xE0002008)  returns 0x00 (0007ms, 0771ms total)
T29BC 022:346 JLINK_ReadReg(R15 (PC))  returns 0x0800734A (0000ms, 0771ms total)
T29BC 022:346 JLINK_ReadReg(XPSR)  returns 0x81000000 (0000ms, 0771ms total)
T29BC 022:346 JLINK_SetBPEx(Addr = 0x08007346, Type = 0xFFFFFFF2)  returns 0x00000008 (0000ms, 0771ms total)
T29BC 022:346 JLINK_Go() -- CPU_WriteMem(4 bytes @ 0xE0002000) -- CPU_WriteMem(4 bytes @ 0xE0002008) (0003ms, 0774ms total)
T29BC 022:450 JLINK_IsHalted()  returns TRUE (0003ms, 0777ms total)
T29BC 022:453 JLINK_Halt()  returns 0x00 (0000ms, 0774ms total)
T29BC 022:453 JLINK_IsHalted()  returns TRUE (0000ms, 0774ms total)
T29BC 022:453 JLINK_IsHalted()  returns TRUE (0000ms, 0774ms total)
T29BC 022:453 JLINK_IsHalted()  returns TRUE (0000ms, 0774ms total)
T29BC 022:453 JLINK_ReadReg(R15 (PC))  returns 0x08007346 (0000ms, 0774ms total)
T29BC 022:453 JLINK_ReadReg(XPSR)  returns 0x81000000 (0000ms, 0774ms total)
T29BC 022:453 JLINK_ClrBPEx(BPHandle = 0x00000008)  returns 0x00 (0000ms, 0774ms total)
T29BC 022:453 JLINK_ReadMemU32(0xE000ED30, 0x0001 Items, ...) -- CPU_ReadMem(4 bytes @ 0xE000ED30) - Data: 03 00 00 00  returns 0x01 (0001ms, 0775ms total)
T29BC 022:454 JLINK_ReadMemU32(0xE0001028, 0x0001 Items, ...) -- CPU_ReadMem(4 bytes @ 0xE0001028) - Data: 00 00 00 00  returns 0x01 (0001ms, 0776ms total)
T29BC 022:455 JLINK_ReadMemU32(0xE0001038, 0x0001 Items, ...) -- CPU_ReadMem(4 bytes @ 0xE0001038) - Data: 00 02 00 00  returns 0x01 (0001ms, 0777ms total)
T29BC 022:456 JLINK_ReadMemU32(0xE0001048, 0x0001 Items, ...) -- CPU_ReadMem(4 bytes @ 0xE0001048) - Data: 00 00 00 00  returns 0x01 (0001ms, 0778ms total)
T29BC 022:457 JLINK_ReadMemU32(0xE0001058, 0x0001 Items, ...) -- CPU_ReadMem(4 bytes @ 0xE0001058) - Data: 00 00 00 00  returns 0x01 (0001ms, 0779ms total)
T29BC 022:458 JLINK_ReadReg(R0)  returns 0x00000000 (0000ms, 0779ms total)
T29BC 022:458 JLINK_ReadReg(R1)  returns 0x200000B8 (0000ms, 0779ms total)
T29BC 022:458 JLINK_ReadReg(R2)  returns 0x00000000 (0000ms, 0779ms total)
T29BC 022:458 JLINK_ReadReg(R3)  returns 0x00000000 (0000ms, 0779ms total)
T29BC 022:458 JLINK_ReadReg(R4)  returns 0x00000000 (0000ms, 0779ms total)
T29BC 022:458 JLINK_ReadReg(R5)  returns 0x20000934 (0000ms, 0779ms total)
T29BC 022:458 JLINK_ReadReg(R6)  returns 0x00000000 (0000ms, 0779ms total)
T29BC 022:458 JLINK_ReadReg(R7)  returns 0x00000000 (0000ms, 0779ms total)
